;Version, 1, 0
;/Vrectified (C=1e-12),;/Vrectified (C=2e-12),;/Vrectified (C=3e-12),;/Vrectified (C=4e-12),;/Vrectified (C=5e-12),;/Vrectified (C=6e-12),;/Vrectified (C=7e-12),;/Vrectified (C=8e-12),;/Vrectified (C=9e-12),;/Vrectified (C=1e-11),;/C0/PLUS (C=1e-12),;/C0/PLUS (C=2e-12),;/C0/PLUS (C=3e-12),;/C0/PLUS (C=4e-12),;/C0/PLUS (C=5e-12),;/C0/PLUS (C=6e-12),;/C0/PLUS (C=7e-12),;/C0/PLUS (C=8e-12),;/C0/PLUS (C=9e-12),;/C0/PLUS (C=1e-11)
;X, Y,;X, Y,;X, Y,;X, Y,;X, Y,;X, Y,;X, Y,;X, Y,;X, Y,;X, Y,;X, Y,;X, Y,;X, Y,;X, Y,;X, Y,;X, Y,;X, Y,;X, Y,;X, Y,;X, Y
;Re, Re,;Re, Re,;Re, Re,;Re, Re,;Re, Re,;Re, Re,;Re, Re,;Re, Re,;Re, Re,;Re, Re,;Re, Re,;Re, Re,;Re, Re,;Re, Re,;Re, Re,;Re, Re,;Re, Re,;Re, Re,;Re, Re,;Re, Re
;time, V,;time, V,;time, V,;time, V,;time, V,;time, V,;time, V,;time, V,;time, V,;time, V,;time, I,;time, I,;time, I,;time, I,;time, I,;time, I,;time, I,;time, I,;time, I,;time, I
;s, V,;s, V,;s, V,;s, V,;s, V,;s, V,;s, V,;s, V,;s, V,;s, V,;s, A,;s, A,;s, A,;s, A,;s, A,;s, A,;s, A,;s, A,;s, A,;s, A
3e-05,1.248503612989403,3e-05,1.30670855181949,3e-05,1.325946458694925,3e-05,1.34124733319447,3e-05,1.345760050655125,3e-05,1.347771974180991,3e-05,1.352719018370512,3e-05,1.356339501157479,3e-05,1.359096411003618,3e-05,1.361301372562631,3e-05,7.848739669350766e-06,3e-05,-6.564256316186358e-06,3e-05,1.343616714193177e-05,3e-05,2.697512410957886e-06,3e-05,1.94979877171547e-05,3e-05,0.0001468965111120516,3e-05,0.000137130265893957,3e-05,-0.000172460004980009,3e-05,-0.000170829530665504,3e-05,-0.0001705357344771852
3.000534309516501e-05,1.247883347475171,3.000713600623149e-05,1.306222288542398,3.000598000261503e-05,1.325670083237026,3.000491001695944e-05,1.341075944261978,3.000501771888692e-05,1.345617998398642,3.000875993157626e-05,1.347544769574429,3.000886723394858e-05,1.352519328695546,3.000444972313765e-05,1.356259866557667,3.00044620208226e-05,1.359025093938836,3.000446997400895e-05,1.361236831948438,3.000534309516501e-05,-8.080914277916586e-06,3.000713600623149e-05,6.291687452697308e-06,3.000598000261503e-05,-1.371346681120376e-05,3.000491001695944e-05,-2.976760216263957e-06,3.000501771888692e-05,-1.978108898226064e-05,3.000875993157626e-05,-0.000147207752730208,3.000886723394858e-05,-0.0001374455452094387,3.000444972313765e-05,0.0001721736605137183,3.00044620208226e-05,0.0001705418343016582,3.000446997400895e-05,0.000170246960475081
3.001602928549501e-05,1.244807222541814,3.001910058684845e-05,1.308920796283136,3.001794000784508e-05,1.326215736288671,3.001473005087832e-05,1.339954058869752,3.001505315666077e-05,1.344923728521525,3.001577435415243e-05,1.346848449645626,3.001583134249015e-05,1.351905774725563,3.001334916941296e-05,1.355924286298517,3.001338606246781e-05,1.35872033811872,3.001340992202685e-05,1.360958374637681,3.001602928549501e-05,7.50519461761466e-06,3.001910058684845e-05,-5.389522027220408e-06,3.001794000784508e-05,1.398720568061876e-05,3.001473005087832e-05,2.06280378679073e-06,3.001505315666077e-05,1.908927075493219e-05,3.001577435415243e-05,0.0001460165158101494,3.001583134249015e-05,0.0001362121130294991,3.001334916941296e-05,-0.0001727769884040507,3.001338606246781e-05,-0.0001711565338940839,3.001340992202685e-05,-0.0001708699111011896
3.001871551174635e-05,1.250012987067392,3.002143276927325e-05,1.31507291144623,3.002053793098423e-05,1.330816648224537,3.001714305832336e-05,1.339488134674848,3.001768857568882e-05,1.345311637696519,3.001814877135882e-05,1.347089404444229,3.001819357196432e-05,1.35213340242306,3.001597365748296e-05,1.355650974162433,3.00160020914238e-05,1.358474248408473,3.00160200150868e-05,1.360734815935635,3.001871551174635e-05,-3.629300304547237e-06,3.002143276927325e-05,1.594120974712294e-05,3.002053793098423e-05,-3.361228645658436e-06,3.001714305832336e-05,-3.607512472582231e-06,3.001768857568882e-05,-1.76173637417963e-05,3.001814877135882e-05,-0.000144798761164738,3.001819357196432e-05,-0.0001348630536769672,3.001597365748296e-05,0.0001711107609110318,3.00160020914238e-05,0.0001694632748136356,3.00160200150868e-05,0.0001691568786773554
3.002408796424902e-05,1.284375987612864,3.002609713412286e-05,1.331585971293482,3.002536314563814e-05,1.343715592136328,3.001834956204588e-05,1.339820729807858,3.002102920930613e-05,1.35064881926587,3.002120748337635e-05,1.351029042093539,3.002125307437511e-05,1.355576263087858,3.001938243868235e-05,1.356908224351895,3.001939362796325e-05,1.359606260032353,3.00193995657368e-05,1.361762114824979,3.002408796424902e-05,1.64215960124787e-05,3.002609713412286e-05,-1.780173567768061e-06,3.002536314563814e-05,1.940065259294039e-05,3.001834956204588e-05,5.812860880896491e-06,3.002102920930613e-05,3.35939184339629e-05,3.002120748337635e-05,0.0001602548261753792,3.002125307437511e-05,0.0001506172655831815,3.001938243868235e-05,-0.0001652095305724616,3.001939362796325e-05,-0.0001634553167707807,3.00193995657368e-05,-0.000163077378792693
3.002840286019071e-05,1.307347911008455,3.00278273883268e-05,1.336391654264184,3.00277757529651e-05,1.348733719732184,3.002076256949091e-05,1.344359483173849,3.00240869637519e-05,1.356374699589783,3.002398686188214e-05,1.355359005331113,3.002402607893482e-05,1.359310691685476,3.002293911342398e-05,1.360893809213749,3.00229286858031e-05,1.363159182181044,3.002292023817614e-05,1.364968700001564,3.002840286019071e-05,-5.773866052830154e-06,3.00278273883268e-05,1.288994682479708e-05,3.00277757529651e-05,-6.920890453964985e-06,3.002076256949091e-05,9.234762367283242e-06,3.00240869637519e-05,-1.486814948987606e-05,3.002398686188214e-05,-0.0001415601580174915,3.002402607893482e-05,-0.0001317633476610217,3.002293911342398e-05,0.0001831390187664242,3.00229286858031e-05,0.0001815462792313298,3.002292023817614e-05,0.0001812931329239646
3.003158233115222e-05,1.320930214709026,3.003103810842085e-05,1.345437047266345,3.00309180914792e-05,1.355059420301866,3.002289677344168e-05,1.349460876920142,3.002674077666212e-05,1.359939626013288,3.002652693915808e-05,1.358292357517136,3.002654383336114e-05,1.361827317129601,3.002568520379833e-05,1.363721343158058,3.002565165387044e-05,1.365669855203307,3.002562787360913e-05,1.367229256453321,3.003158233115222e-05,1.431761679941597e-05,3.003103810842085e-05,-1.620957019145973e-06,3.00309180914792e-05,1.899922105004278e-05,3.002289677344168e-05,9.88766028382952e-06,3.002674077666212e-05,2.830137385086235e-05,3.002652693915808e-05,0.0001554180931936233,3.002654383336114e-05,0.0001457570699436825,3.002568520379833e-05,-0.0001666644906403902,3.002565165387044e-05,-0.0001649496415612973,3.002562787360913e-05,-0.0001645954902191164
3.003794127307524e-05,1.345996416102551,3.003518877882375e-05,1.355513278066973,3.003551868082557e-05,1.363038333316192,3.002497050553422e-05,1.353169965482571,3.002969456404597e-05,1.363916557252349,3.002935192905676e-05,1.361522385565562,3.002937854571281e-05,1.364636987547412,3.002840353491274e-05,1.366011915934628,3.002835540639267e-05,1.367712781821788,3.002832131411133e-05,1.369073352459402,3.003794127307524e-05,-6.433851953950305e-06,3.003518877882375e-05,1.133141805078512e-05,3.003551868082557e-05,-8.59327640217317e-06,3.002497050553422e-05,4.421183470022377e-06,3.002969456404597e-05,-1.483753667423156e-05,3.002935192905676e-05,-0.000141697571007263,3.002937854571281e-05,-0.0001318807463632146,3.002840353491274e-05,0.0001801467203183158,3.002835540639267e-05,0.0001785502499121746,3.002832131411133e-05,0.0001782887275828186
3.004398948944274e-05,1.363896677612999,3.004025997420511e-05,1.36618826586599,3.004175777450354e-05,1.372060191470587,3.002730165983669e-05,1.357182983530927,3.003304287144443e-05,1.367804864310283,3.003269607458978e-05,1.364858902786005,3.003270804148187e-05,1.367514848612385,3.003318824317432e-05,1.369805181847103,3.003314975327564e-05,1.371118141249072,3.003311506830905e-05,1.37215751816328,3.004398948944274e-05,1.235303884237801e-05,3.004025997420511e-05,-2.911322198640929e-06,3.004175777450354e-05,1.726940016635013e-05,3.002730165983669e-05,9.350596610268694e-06,3.003304287144443e-05,2.645029080702761e-05,3.003269607458978e-05,0.0001536701978711374,3.003270804148187e-05,0.0001439816942857091,3.003318824317432e-05,-0.0001674620901838086,3.003314975327564e-05,-0.000165765094564129,3.003311506830905e-05,-0.0001654212939319883
3.005169665486226e-05,1.380481447036578,3.004868639384656e-05,1.37900101932291,3.005153672843773e-05,1.381575673000561,3.003024894255425e-05,1.361780989699674,3.003789057961994e-05,1.372871683263009,3.003774319158041e-05,1.369351122998445,3.003770627272661e-05,1.371374295904321,3.003781869618352e-05,1.372866146789001,3.003777379026717e-05,1.373858531786576,3.003772975617861e-05,1.374636234752276,3.005169665486226e-05,-8.049311461210769e-06,3.004868639384656e-05,8.993503719202363e-06,3.005153672843773e-05,-1.143105696889825e-05,3.003024894255425e-05,3.130068760182354e-06,3.003789057961994e-05,-1.59983024255372e-05,3.003774319158041e-05,-0.0001429895176631408,3.003770627272661e-05,-0.0001331714177215806,3.003781869618352e-05,0.000178038903936808,3.003777379026717e-05,0.0001764326194488702,3.003772975617861e-05,0.000176164020890183
3.006384547855254e-05,1.392852667474856,3.005858901163495e-05,1.388312677313909,3.006242114489243e-05,1.387263708354167,3.003614350798937e-05,1.369855102353295,3.004461662687892e-05,1.37832579579372,3.004489195893103e-05,1.374252453324155,3.004478950860997e-05,1.375597484382608,3.004494487437369e-05,1.37663887079806,3.004493053960453e-05,1.377253179494643,3.004489836770488e-05,1.37771816738542,3.006384547855254e-05,1.00859235240188e-05,3.005858901163495e-05,-5.232212234476196e-06,3.006242114489243e-05,1.456656839146002e-05,3.003614350798937e-05,7.827974193100682e-06,3.004461662687892e-05,2.410724415714137e-05,3.004489195893103e-05,0.0001512169449976407,3.004478950860997e-05,0.000141518540374224,3.004494487437369e-05,-0.0001695682226636121,3.004493053960453e-05,-0.0001678947126611958,3.004489836770488e-05,-0.0001675656120578767
3.007527455072283e-05,1.384920325734292,3.007259966633715e-05,1.387074022233262,3.00764282499228e-05,1.383457244198652,3.004440419032295e-05,1.378466815211981,3.00534084988624e-05,1.383139433582293,3.005425704565405e-05,1.378513524891097,3.005408061283787e-05,1.379279433440066,3.005607687446239e-05,1.380391166827094,3.00561328136495e-05,1.38063066999166,3.005612925648371e-05,1.380784675738542,3.007527455072283e-05,-1.147402250919955e-05,3.007259966633715e-05,4.878579914795455e-06,3.00764282499228e-05,-1.619708268285489e-05,3.004440419032295e-05,5.119788625209576e-07,3.00534084988624e-05,-1.863214420389278e-05,3.005425704565405e-05,-0.000145756999957553,3.005408061283787e-05,-0.0001359705144840773,3.005607687446239e-05,0.0001749613897482488,3.00561328136495e-05,0.0001733217204903467,3.005612925648371e-05,0.0001730264592152327
3.009180730344085e-05,1.333980118390073,3.009028783027404e-05,1.358138615224345,3.009726158325614e-05,1.352207730518973,3.005532690421997e-05,1.385501325980312,3.006868506758183e-05,1.385061437499902,3.006826747800393e-05,1.380251919524451,3.006820711626744e-05,1.380815778528174,3.006729262814572e-05,1.381620503616908,3.006738669380816e-05,1.381705805724669,3.006740243340001e-05,1.381753020790351,3.009180730344085e-05,5.311684244903877e-06,3.009028783027404e-05,-1.142203057754402e-05,3.009726158325614e-05,7.197222743108244e-06,3.005532690421997e-05,4.640228425633248e-06,3.006868506758183e-05,1.989028269880488e-05,3.006826747800393e-05,0.0001472459429879523,3.006820711626744e-05,0.0001374931015376077,3.006729262814572e-05,-0.0001732076610918982,3.006738669380816e-05,-0.00017160209642102,3.006740243340001e-05,-0.0001713084961973574
3.009604485572247e-05,1.315719542442046,3.009470499014949e-05,1.346747011955268,3.010479806549412e-05,1.335945729003067,3.006793209625816e-05,1.387405925776335,3.008270561794716e-05,1.378331958164537,3.008261448740676e-05,1.374724888005909,3.00824874708226e-05,1.376085109538779,3.00837035577593e-05,1.376890148570076,3.008377234280149e-05,1.377433074539089,3.008375023359379e-05,1.377893964520216,3.009604485572247e-05,-1.393013883118083e-05,3.009470499014949e-05,1.10625882347915e-06,3.010479806549412e-05,-2.014384770876337e-05,3.006793209625816e-05,-3.431456808189932e-06,3.008270561794716e-05,-2.469000821600565e-05,3.008261448740676e-05,-0.0001518688143028213,3.00824874708226e-05,-0.000142130897160658,3.00837035577593e-05,0.0001685957541170088,3.008377234280149e-05,0.0001669084061453548,3.008375023359379e-05,0.0001665873028571004
3.010451996028569e-05,1.272936870302907,3.010353930990038e-05,1.320896838348384,3.011067195428875e-05,1.329039587896742,3.008268677729832e-05,1.379139249977381,3.00957571483832e-05,1.364597636062733,3.009559978227676e-05,1.363218207014738,3.009553320688556e-05,1.366095585337616,3.008891189109264e-05,1.373714927557247,3.008898067613483e-05,1.374583643423944,3.008895856692712e-05,1.375317496958358,3.010451996028569e-05,3.834057580507554e-06,3.010353930990038e-05,-1.281069078238702e-05,3.011067195428875e-05,1.308943314854199e-05,3.008268677729832e-05,-1.050741499695778e-06,3.00957571483832e-05,1.416685756397853e-05,3.009559978227676e-05,0.0001412352342974011,3.009553320688556e-05,0.000131410663504132,3.008891189109264e-05,-0.0001783500330684208,3.008898067613483e-05,-0.0001767560400792973,3.008895856692712e-05,-0.0001764809382946378
3.010930844294421e-05,1.260347482654562,3.010912393654407e-05,1.309016845693924,3.011650205819026e-05,1.328229248923192,3.009547694614353e-05,1.362815768991731,3.0099374305273e-05,1.359866212224721,3.009920230590251e-05,1.359236442480596,3.009914629762588e-05,1.362637549715555,3.00993285577593e-05,1.365499264679955,3.009939734280149e-05,1.36721883749966,3.009937523359379e-05,1.368657104681537,3.010930844294421e-05,-9.092252522887753e-06,3.010912393654407e-05,4.301622289588433e-06,3.011650205819026e-05,-1.392338635476871e-05,3.009547694614353e-05,-9.159276011848095e-06,3.0099374305273e-05,-2.724736245265512e-05,3.009920230590251e-05,-0.0001544984851108551,3.009914629762588e-05,-0.000144809856103589,3.00993285577593e-05,0.000165730774888899,3.009939734280149e-05,0.0001640296554421344,3.009937523359379e-05,0.0001636929851231396
3.011420796273909e-05,1.255948237528239,3.011486151100589e-05,1.305958206249005,3.012153215087042e-05,1.328057293203715,3.00990262233138e-05,1.357128471830835,3.01066086190526e-05,1.350363332346316,3.010640735315401e-05,1.35116505747117,3.010637247910651e-05,1.355603374715945,3.010456443711226e-05,1.360862140780251,3.010462547118227e-05,1.363075474307573,3.010460913010238e-05,1.364901601778008,3.011420796273909e-05,7.296466278317677e-06,3.011486151100589e-05,-6.433979413854915e-06,3.012153215087042e-05,1.371827396768825e-05,3.00990262233138e-05,-3.659778433483573e-06,3.01066086190526e-05,1.411152100601083e-05,3.010640735315401e-05,0.0001410556003202022,3.010637247910651e-05,0.0001311818493536323,3.010456443711226e-05,-0.0001799010751180888,3.010462547118227e-05,-0.0001782949014394874,3.010460913010238e-05,-0.0001780436811957876
3.011987272807127e-05,1.255404234916558,3.012059908516219e-05,1.305668569069893,3.012658130952677e-05,1.327853614859655,3.010612477765432e-05,1.345603699953094,3.011179115958839e-05,1.346895169558043,3.011152495165714e-05,1.348194790563052,3.011145679381547e-05,1.353039350498512,3.010968564350187e-05,1.357935887916973,3.010973445421688e-05,1.360484896683575,3.01097032265405e-05,1.362556364059349,3.011987272807127e-05,-7.488531643705485e-06,3.012059908516219e-05,6.232056321466243e-06,3.012658130952677e-05,-1.396030836342354e-05,3.010612477765432e-05,-9.328524620781754e-06,3.011179115958839e-05,-2.080353386017186e-05,3.011152495165714e-05,-0.0001480204301863144,3.011145679381547e-05,-0.0001382420612206932,3.010968564350187e-05,0.0001707586890765067,3.010973445421688e-05,0.000169167762649613,3.01097032265405e-05,0.0001688360120943159
3.012577404609712e-05,1.254826534354712,3.012584037247605e-05,1.305375026065788,3.013557428202609e-05,1.327337054763761,3.011138997496621e-05,1.340905650552145,3.01165270100794e-05,1.346701485146171,3.011621607120579e-05,1.348008270275052,3.011612546132113e-05,1.352870804908985,3.011472092272497e-05,1.357394520407593,3.011474299306358e-05,1.360017806985634,3.011470937815561e-05,1.36212317178216,3.012577404609712e-05,7.292744682448654e-06,3.012584037247605e-05,-6.456079914547404e-06,3.013557428202609e-05,1.361566585777856e-05,3.011138997496621e-05,2.190255533927798e-06,3.01165270100794e-05,2.039455893108699e-05,3.011621607120579e-05,0.0001475433066696811,3.011612546132113e-05,0.0001377366411515808,3.011472092272497e-05,-0.0001724789273724,3.011474299306358e-05,-0.0001708464188046832,3.011470937815561e-05,-0.0001705666519570094
3.013276498393121e-05,1.253957004945039,3.013279607741058e-05,1.304888011490157,3.014181265763805e-05,1.325977486233389,3.011620049781693e-05,1.340614154174427,3.012091303492824e-05,1.346610030774787,3.012060812539683e-05,1.347931524399534,3.012050243706322e-05,1.352804653135761,3.012080560659365e-05,1.357305668694772,3.012088416954189e-05,1.359937721777003,3.012082216276487e-05,1.362050903999551,3.013276498393121e-05,-7.54150369885253e-06,3.013279607741058e-05,6.176013649394041e-06,3.014181265763805e-05,-1.492328368806703e-05,3.011620049781693e-05,-2.675020099881847e-06,3.012091303492824e-05,-2.060307204840008e-05,3.012060812539683e-05,-0.0001477529922669331,3.012050243706322e-05,-0.0001379482312721816,3.012080560659365e-05,0.0001722452870657186,3.012088416954189e-05,0.0001706116862969197,3.012082216276487e-05,0.0001703302039640622
3.014470342198506e-05,1.261238863024876,3.014106244080294e-05,1.302525614148994,3.014414107839314e-05,1.327708536401281,3.012075663124475e-05,1.340497237988167,3.012543386282047e-05,1.346500108287229,3.012507136068466e-05,1.34784156599993,3.012494539188335e-05,1.352727606715269,3.012548415487672e-05,1.357233063546814,3.012554719503326e-05,1.359872939223336,3.012548423759218e-05,1.361992533933561,3.014470342198506e-05,8.761405003694875e-06,3.014106244080294e-05,-7.319151074659404e-06,3.014414107839314e-05,1.938394698727114e-05,3.012075663124475e-05,2.46972991141452e-06,3.012543386282047e-05,2.035992523950065e-05,3.012507136068466e-05,0.0001475111271790223,3.012494539188335e-05,0.0001377054536769649,3.012548415487672e-05,-0.0001724935868153523,3.012554719503326e-05,-0.0001708617569791733,3.012548423759218e-05,-0.0001705806077784658
3.014691499610337e-05,1.271366485645453,3.014340820723158e-05,1.303553477288991,3.014862360359995e-05,1.339733219957488,3.012524168413186e-05,1.340363617647184,3.013447551860493e-05,1.34621061628645,3.013399783126031e-05,1.347607590310147,3.01338313015236e-05,1.352527934704431,3.01329674366686e-05,1.357087476955079,3.013310532966045e-05,1.35974093114457,3.013296722732061e-05,1.361875108738652,3.014691499610337e-05,3.973408296145243e-07,3.014340820723158e-05,9.071862900436596e-06,3.014862360359995e-05,-3.28853245895674e-06,3.012524168413186e-05,-2.708068846265756e-06,3.013447551860493e-05,-2.068010110958422e-05,3.013399783126031e-05,-0.0001478256645153182,3.01338313015236e-05,-0.0001380200425333569,3.01329674366686e-05,0.0001721823082169334,3.013310532966045e-05,0.0001705473744582219,3.013296722732061e-05,0.0001702667621120378
